
**** 07/15/20 16:17:12 ******* PSpice Lite (March 2016) ******* ID# 10813 ****

 ** Profile: "SCHEMATIC1-dist_sweep"  [ e:\user\connor\documents\ee projects\distortion_pedal\bass_distortion_pedal\electrical\simula


 ****     CIRCUIT DESCRIPTION


******************************************************************************




** Creating circuit file "dist_sweep.cir" 
** WARNING: THIS AUTOMATICALLY GENERATED FILE MAY BE OVERWRITTEN BY SUBSEQUENT SIMULATIONS

*Libraries: 
* Profile Libraries :
* Local Libraries :
* From [PSPICE NETLIST] section of C:\Users\Connor\AppData\Roaming\SPB_Data\cdssetup\OrCAD_PSpice\17.2.0\PSpice.ini file:
.lib "nomd.lib" 

*Analysis directives: 
.TRAN  0 50ms 0 0.01ms 
.STEP LIN PARAM set_pot2 5k 45k 5k 
.OPTIONS ADVCONV
.PROBE64 V(alias(*)) I(alias(*)) W(alias(*)) D(alias(*)) NOISE(alias(*)) 
.INC "..\SCHEMATIC1.net" 



**** INCLUDING SCHEMATIC1.net ****
* source DISTORTION_PEDAL_SIM
E_U1         AMP_S1 0 VALUE {LIMIT(V(N00287,AMP_S1)*1E6,0V,9V)}
V_V1         N00103 0  AC 1
+SIN 0 0.5 40 0 0 0
C_C1         N00103 N00287  47u  TC=0,0 
V_V2         SUPPLY 0 9Vdc
R_R1         N00426 SUPPLY  50k TC=0,0 
R_R2         0 N00426  50k TC=0,0 
R_R3         N00287 VGND  50k TC=0,0 
E_U2         AMP_S1_CLEAN 0 VALUE {LIMIT(V(VGND,N01161)*1E6,0V,9V)}
R_R4         AMP_S1 N01161  25k TC=0,0 
R_R5         N01161 AMP_S1_CLEAN  {set_pot1} TC=0,0 
R_R6         N01459 AMP_S1_DIST  {set_pot2} TC=0,0 
R_R7         AMP_S1 N01459  25k TC=0,0 
E_U3         AMP_S1_DIST 0 VALUE {LIMIT(V(VGND,N01459)*1E6,0V,9V)}
D_D7         AMP_S1_DIST N01459 D1N4004 
D_D9         N01459 AMP_S1_DIST D1N4004 
C_C2         N12591 OUT  47u  TC=0,0 
R_R10         OUT 0  10k TC=0,0 
R_R11         AMP_S1_CLEAN N12306  25k TC=0,0 
R_R12         AMP_S1_DIST N12273  25k TC=0,0 
E_U4         N12261 0 VALUE {LIMIT(V(VGND,N12273)*1E6,0V,9V)}
E_U5         N12294 0 VALUE {LIMIT(V(VGND,N12306)*1E6,0V,9V)}
R_R13         N12306 N12294  {set_pot3} TC=0,0 
R_R14         N12273 N12261  50k-{set_pot3} TC=0,0 
E_U6         N12591 0 VALUE {LIMIT(V(VGND,N12603)*1E6,0V,9V)}
R_R15         N12294 N12603  25k TC=0,0 
R_R16         N12261 N12603  25k TC=0,0 
R_R17         N12603 N12591  25k TC=0,0 
E_U7         VGND 0 VALUE {LIMIT(V(N00426,VGND)*1E6,0V,9V)}
.PARAM  set_pot1=25k set_pot3=25k set_pot2=50k

**** RESUMING dist_sweep.cir ****
.END

**** 07/15/20 16:17:12 ******* PSpice Lite (March 2016) ******* ID# 10813 ****

 ** Profile: "SCHEMATIC1-dist_sweep"  [ e:\user\connor\documents\ee projects\distortion_pedal\bass_distortion_pedal\electrical\simula


 ****     Diode MODEL PARAMETERS


******************************************************************************




               D1N4004         D1N4001         
          IS   14.110000E-09   14.110000E-09 
           N    1.984           1.984        
         IKF   94.81           94.81         
          BV  600              75            
         IBV   10.000000E-06   10.000000E-06 
          RS     .03389          .03389      
          TT    5.700000E-06    5.700000E-06 
         CJO   25.890000E-12   25.890000E-12 
          VJ     .3245           .3245       
           M     .44             .44         


**** 07/15/20 16:17:12 ******* PSpice Lite (March 2016) ******* ID# 10813 ****

 ** Profile: "SCHEMATIC1-dist_sweep"  [ e:\user\connor\documents\ee projects\distortion_pedal\bass_distortion_pedal\electrical\simula


 ****     INITIAL TRANSIENT SOLUTION       TEMPERATURE =   27.000 DEG C

 ****     CURRENT STEP                     PARAM SET_POT2 =    5.0000E+03


******************************************************************************



 NODE   VOLTAGE     NODE   VOLTAGE     NODE   VOLTAGE     NODE   VOLTAGE


(  OUT)    0.0000  ( VGND)    4.5000  (AMP_S1)    4.5000 (N00103)    0.0000     

(N00287)    4.5000 (N00426)    4.5000 (N01161)    4.5000 (N01459)    4.5000     

(N12261)    4.5000 (N12273)    4.5000 (N12294)    4.5000 (N12306)    4.5000     

(N12591)    4.5000 (N12603)    4.5000 (SUPPLY)    9.0000 (AMP_S1_DIST)    4.5000

(AMP_S1_CLEAN)    4.5000              




    VOLTAGE SOURCE CURRENTS
    NAME         CURRENT

    V_V1         0.000E+00
    V_V2        -9.000E-05

    TOTAL POWER DISSIPATION   8.10E-04  WATTS


**** 07/15/20 16:17:12 ******* PSpice Lite (March 2016) ******* ID# 10813 ****

 ** Profile: "SCHEMATIC1-dist_sweep"  [ e:\user\connor\documents\ee projects\distortion_pedal\bass_distortion_pedal\electrical\simula


 ****     INITIAL TRANSIENT SOLUTION       TEMPERATURE =   27.000 DEG C

 ****     CURRENT STEP                     PARAM SET_POT2 =   10.0000E+03


******************************************************************************



 NODE   VOLTAGE     NODE   VOLTAGE     NODE   VOLTAGE     NODE   VOLTAGE


(  OUT)    0.0000  ( VGND)    4.5000  (AMP_S1)    4.5000 (N00103)    0.0000     

(N00287)    4.5000 (N00426)    4.5000 (N01161)    4.5000 (N01459)    4.5000     

(N12261)    4.5000 (N12273)    4.5000 (N12294)    4.5000 (N12306)    4.5000     

(N12591)    4.5000 (N12603)    4.5000 (SUPPLY)    9.0000 (AMP_S1_DIST)    4.5000

(AMP_S1_CLEAN)    4.5000              




    VOLTAGE SOURCE CURRENTS
    NAME         CURRENT

    V_V1         0.000E+00
    V_V2        -9.000E-05

    TOTAL POWER DISSIPATION   8.10E-04  WATTS


**** 07/15/20 16:17:12 ******* PSpice Lite (March 2016) ******* ID# 10813 ****

 ** Profile: "SCHEMATIC1-dist_sweep"  [ e:\user\connor\documents\ee projects\distortion_pedal\bass_distortion_pedal\electrical\simula


 ****     INITIAL TRANSIENT SOLUTION       TEMPERATURE =   27.000 DEG C

 ****     CURRENT STEP                     PARAM SET_POT2 =   15.0000E+03


******************************************************************************



 NODE   VOLTAGE     NODE   VOLTAGE     NODE   VOLTAGE     NODE   VOLTAGE


(  OUT)    0.0000  ( VGND)    4.5000  (AMP_S1)    4.5000 (N00103)    0.0000     

(N00287)    4.5000 (N00426)    4.5000 (N01161)    4.5000 (N01459)    4.5000     

(N12261)    4.5000 (N12273)    4.5000 (N12294)    4.5000 (N12306)    4.5000     

(N12591)    4.5000 (N12603)    4.5000 (SUPPLY)    9.0000 (AMP_S1_DIST)    4.5000

(AMP_S1_CLEAN)    4.5000              




    VOLTAGE SOURCE CURRENTS
    NAME         CURRENT

    V_V1         0.000E+00
    V_V2        -9.000E-05

    TOTAL POWER DISSIPATION   8.10E-04  WATTS


**** 07/15/20 16:17:12 ******* PSpice Lite (March 2016) ******* ID# 10813 ****

 ** Profile: "SCHEMATIC1-dist_sweep"  [ e:\user\connor\documents\ee projects\distortion_pedal\bass_distortion_pedal\electrical\simula


 ****     INITIAL TRANSIENT SOLUTION       TEMPERATURE =   27.000 DEG C

 ****     CURRENT STEP                     PARAM SET_POT2 =   20.0000E+03


******************************************************************************



 NODE   VOLTAGE     NODE   VOLTAGE     NODE   VOLTAGE     NODE   VOLTAGE


(  OUT)    0.0000  ( VGND)    4.5000  (AMP_S1)    4.5000 (N00103)    0.0000     

(N00287)    4.5000 (N00426)    4.5000 (N01161)    4.5000 (N01459)    4.5000     

(N12261)    4.5000 (N12273)    4.5000 (N12294)    4.5000 (N12306)    4.5000     

(N12591)    4.5000 (N12603)    4.5000 (SUPPLY)    9.0000 (AMP_S1_DIST)    4.5000

(AMP_S1_CLEAN)    4.5000              




    VOLTAGE SOURCE CURRENTS
    NAME         CURRENT

    V_V1         0.000E+00
    V_V2        -9.000E-05

    TOTAL POWER DISSIPATION   8.10E-04  WATTS


**** 07/15/20 16:17:12 ******* PSpice Lite (March 2016) ******* ID# 10813 ****

 ** Profile: "SCHEMATIC1-dist_sweep"  [ e:\user\connor\documents\ee projects\distortion_pedal\bass_distortion_pedal\electrical\simula


 ****     INITIAL TRANSIENT SOLUTION       TEMPERATURE =   27.000 DEG C

 ****     CURRENT STEP                     PARAM SET_POT2 =   25.0000E+03


******************************************************************************



 NODE   VOLTAGE     NODE   VOLTAGE     NODE   VOLTAGE     NODE   VOLTAGE


(  OUT)    0.0000  ( VGND)    4.5000  (AMP_S1)    4.5000 (N00103)    0.0000     

(N00287)    4.5000 (N00426)    4.5000 (N01161)    4.5000 (N01459)    4.5000     

(N12261)    4.5000 (N12273)    4.5000 (N12294)    4.5000 (N12306)    4.5000     

(N12591)    4.5000 (N12603)    4.5000 (SUPPLY)    9.0000 (AMP_S1_DIST)    4.5000

(AMP_S1_CLEAN)    4.5000              




    VOLTAGE SOURCE CURRENTS
    NAME         CURRENT

    V_V1         0.000E+00
    V_V2        -9.000E-05

    TOTAL POWER DISSIPATION   8.10E-04  WATTS


**** 07/15/20 16:17:12 ******* PSpice Lite (March 2016) ******* ID# 10813 ****

 ** Profile: "SCHEMATIC1-dist_sweep"  [ e:\user\connor\documents\ee projects\distortion_pedal\bass_distortion_pedal\electrical\simula


 ****     INITIAL TRANSIENT SOLUTION       TEMPERATURE =   27.000 DEG C

 ****     CURRENT STEP                     PARAM SET_POT2 =   30.0000E+03


******************************************************************************



 NODE   VOLTAGE     NODE   VOLTAGE     NODE   VOLTAGE     NODE   VOLTAGE


(  OUT)    0.0000  ( VGND)    4.5000  (AMP_S1)    4.5000 (N00103)    0.0000     

(N00287)    4.5000 (N00426)    4.5000 (N01161)    4.5000 (N01459)    4.5000     

(N12261)    4.5000 (N12273)    4.5000 (N12294)    4.5000 (N12306)    4.5000     

(N12591)    4.5000 (N12603)    4.5000 (SUPPLY)    9.0000 (AMP_S1_DIST)    4.5000

(AMP_S1_CLEAN)    4.5000              




    VOLTAGE SOURCE CURRENTS
    NAME         CURRENT

    V_V1         0.000E+00
    V_V2        -9.000E-05

    TOTAL POWER DISSIPATION   8.10E-04  WATTS


**** 07/15/20 16:17:12 ******* PSpice Lite (March 2016) ******* ID# 10813 ****

 ** Profile: "SCHEMATIC1-dist_sweep"  [ e:\user\connor\documents\ee projects\distortion_pedal\bass_distortion_pedal\electrical\simula


 ****     INITIAL TRANSIENT SOLUTION       TEMPERATURE =   27.000 DEG C

 ****     CURRENT STEP                     PARAM SET_POT2 =   35.0000E+03


******************************************************************************



 NODE   VOLTAGE     NODE   VOLTAGE     NODE   VOLTAGE     NODE   VOLTAGE


(  OUT)    0.0000  ( VGND)    4.5000  (AMP_S1)    4.5000 (N00103)    0.0000     

(N00287)    4.5000 (N00426)    4.5000 (N01161)    4.5000 (N01459)    4.5000     

(N12261)    4.5000 (N12273)    4.5000 (N12294)    4.5000 (N12306)    4.5000     

(N12591)    4.5000 (N12603)    4.5000 (SUPPLY)    9.0000 (AMP_S1_DIST)    4.5000

(AMP_S1_CLEAN)    4.5000              




    VOLTAGE SOURCE CURRENTS
    NAME         CURRENT

    V_V1         0.000E+00
    V_V2        -9.000E-05

    TOTAL POWER DISSIPATION   8.10E-04  WATTS


**** 07/15/20 16:17:12 ******* PSpice Lite (March 2016) ******* ID# 10813 ****

 ** Profile: "SCHEMATIC1-dist_sweep"  [ e:\user\connor\documents\ee projects\distortion_pedal\bass_distortion_pedal\electrical\simula


 ****     INITIAL TRANSIENT SOLUTION       TEMPERATURE =   27.000 DEG C

 ****     CURRENT STEP                     PARAM SET_POT2 =   40.0000E+03


******************************************************************************



 NODE   VOLTAGE     NODE   VOLTAGE     NODE   VOLTAGE     NODE   VOLTAGE


(  OUT)    0.0000  ( VGND)    4.5000  (AMP_S1)    4.5000 (N00103)    0.0000     

(N00287)    4.5000 (N00426)    4.5000 (N01161)    4.5000 (N01459)    4.5000     

(N12261)    4.5000 (N12273)    4.5000 (N12294)    4.5000 (N12306)    4.5000     

(N12591)    4.5000 (N12603)    4.5000 (SUPPLY)    9.0000 (AMP_S1_DIST)    4.5000

(AMP_S1_CLEAN)    4.5000              




    VOLTAGE SOURCE CURRENTS
    NAME         CURRENT

    V_V1         0.000E+00
    V_V2        -9.000E-05

    TOTAL POWER DISSIPATION   8.10E-04  WATTS


**** 07/15/20 16:17:12 ******* PSpice Lite (March 2016) ******* ID# 10813 ****

 ** Profile: "SCHEMATIC1-dist_sweep"  [ e:\user\connor\documents\ee projects\distortion_pedal\bass_distortion_pedal\electrical\simula


 ****     INITIAL TRANSIENT SOLUTION       TEMPERATURE =   27.000 DEG C

 ****     CURRENT STEP                     PARAM SET_POT2 =   45.0000E+03


******************************************************************************



 NODE   VOLTAGE     NODE   VOLTAGE     NODE   VOLTAGE     NODE   VOLTAGE


(  OUT)    0.0000  ( VGND)    4.5000  (AMP_S1)    4.5000 (N00103)    0.0000     

(N00287)    4.5000 (N00426)    4.5000 (N01161)    4.5000 (N01459)    4.5000     

(N12261)    4.5000 (N12273)    4.5000 (N12294)    4.5000 (N12306)    4.5000     

(N12591)    4.5000 (N12603)    4.5000 (SUPPLY)    9.0000 (AMP_S1_DIST)    4.5000

(AMP_S1_CLEAN)    4.5000              




    VOLTAGE SOURCE CURRENTS
    NAME         CURRENT

    V_V1         0.000E+00
    V_V2        -9.000E-05

    TOTAL POWER DISSIPATION   8.10E-04  WATTS



          JOB CONCLUDED

**** 07/15/20 16:17:12 ******* PSpice Lite (March 2016) ******* ID# 10813 ****

 ** Profile: "SCHEMATIC1-dist_sweep"  [ e:\user\connor\documents\ee projects\distortion_pedal\bass_distortion_pedal\electrical\simula


 ****     JOB STATISTICS SUMMARY

 ****     CURRENT STEP                     PARAM SET_POT2 =   45.0000E+03


******************************************************************************



  Total job time (using Solver 1)   =        1.59
